Circuit: * C:\Users\nstep\Desktop\stephensAD2\Draft3.asc

Direct Newton iteration for .op point succeeded.
Semiconductor Device Operating Points:
                        --- Diodes ---
Name:    d:u1:4      d:u1:1
Model:    u1:di       u1:x
Id:        NaN       -1.48e-7
Vd:        NaN       -8.37e-1
Req:      1.00e-9     1.00e-4
CAP:      0.00e+0     0.00e+0

                        --- VDMOSFET Transistors ---
Name:        m:u1:2      m:u1:1
Model:        u1:p        u1:n
Id:           0.00e+0     4.64e-2
Vgs:          1.06e+0     1.06e+0
Vds:          0.00e+0     1.00e+1
Vth:          3.00e-1    -3.00e-1
Gm:           0.00e+0     6.81e-2
Gds:          0.00e+0     0.00e+0
Cgs:          0.00e+0     0.00e+0
Cgd:          0.00e+0     0.00e+0
Cbody:        0.00e+0     0.00e+0



Date: Tue Mar 10 22:21:09 2020
Total elapsed time: 0.131 seconds.

tnom = 27
temp = 27
method = trap
totiter = 7
traniter = 0
tranpoints = 0
accept = 0
rejected = 0
matrix size = 6
fillins = 0
solver = Normal
Matrix Compiler1: 110 bytes object code size
Matrix Compiler2: 446 bytes object code size
